X--Trace 1::[interactive: TIME],Y--Trace 1::[vS: V(1)],,X--Trace 2::[interactive: TIME],Y--Trace 2::[vO: V(2)-V(3)],,X--Trace 3::[interactive: TIME],Y--Trace 3::[vD2: V(1)-V(2)],,X--Trace 4::[interactive: TIME],Y--Trace 4::[vD1: V(3)-V(1)],,X--Trace 5::[interactive: TIME],Y--Trace 5::[iO: -I(R)]
0,0,,0,1.2853776819461936e-29,,0,1.9052173970484125e-19,,0,-1.9052173971769503e-19,,0,1.2853776819461936e-30
0.000005208333333333333,0.6108960113027535,,0.000005208333333333333,1.3453719416300913e-8,,0.000005208333333333333,0.3054538875500269,,0.000005208333333333333,-0.3054539010037463,,0.000005208333333333333,1.3453719416300914e-9
0.000010416666666666666,1.221789667410185,,0.000010416666666666666,0.001749068013790045,,0.000010416666666666666,0.6100206985352024,,0.000010416666666666666,-0.6117697665489924,,0.000010416666666666666,0.0001749068013790045
0.000020833333333333333,2.4435604933122725,,0.000020833333333333333,0.9005555050522278,,0.000020833333333333333,0.771502494130373,,0.000020833333333333333,-1.6720579991826008,,0.000020833333333333333,0.09005555050522279
0.000041666666666666665,4.88697025630312,,0.000041666666666666665,3.277151204237234,,0.000041666666666666665,0.8049095260113592,,0.000041666666666666665,-4.082060730248593,,0.000041666666666666665,0.3277151204237234
0.00008333333333333333,9.772734725820802,,0.00008333333333333333,8.11600705675632,,0.00008333333333333333,0.8283638345323965,,0.00008333333333333333,-8.944370891288717,,0.00008333333333333333,0.811600705675632
0.00016666666666666666,19.535824942343783,,0.00016666666666666666,17.83836048179548,,0.00016666666666666666,0.8487322302742903,,0.00016666666666666666,-18.68709271206977,,0.00016666666666666666,1.783836048179548
0.0003333333333333333,38.99455090870959,,0.0003333333333333333,37.25895776388312,,0.0003333333333333333,0.8677965724133685,,0.0003333333333333333,-38.126754336296486,,0.0003333333333333333,3.725895776388312
0.0006666666666666666,77.37413445537322,,0.0006666666666666666,75.6019517732624,,0.0006666666666666666,0.8860913410555469,,0.0006666666666666666,-76.48804311431795,,0.0006666666666666666,7.56019517732624
0.0011875,134.6783405889064,,0.0011875,132.87700052992028,,0.0011875,0.9006700294931989,,0.0011875,-133.77767055941348,,0.0011875,13.28770005299203
0.0017083333333333334,186.80693362209144,,0.0017083333333333334,184.98846342259918,,0.0017083333333333334,0.9092350997462688,,0.0017083333333333334,-185.89769852234545,,0.0017083333333333334,18.49884634225992
0.0022291666666666666,231.7566409587148,,0.0022291666666666666,229.92693664938523,,0.0022291666666666666,0.9148521546649135,,0.0022291666666666666,-230.84178880405014,,0.0022291666666666666,22.992693664938525
0.00275,267.8000705539164,,0.00275,265.9628357010918,,0.00275,0.9186174264123679,,0.00275,-266.8814531275042,,0.00275,26.596283570109183
0.003270833333333333,293.55209362174077,,0.003270833333333333,291.7100789803552,,0.003270833333333333,0.9210073206928655,,0.003270833333333333,-292.6310863010481,,0.003270833333333333,29.171007898035523
0.0037916666666666663,308.02307435759235,,0.0037916666666666663,306.17850637133927,,0.0037916666666666663,0.9222839931266549,,0.0037916666666666663,-307.1007903644659,,0.0037916666666666663,30.617850637133927
0.0043124999999999995,310.65690108721185,,0.0043124999999999995,308.8118949689436,,0.0043124999999999995,0.9225030591342147,,0.0043124999999999995,-309.7343980280778,,0.0043124999999999995,30.88118949689436
0.004833333333333333,301.35235732644713,,0.004833333333333333,299.50893727320454,,0.004833333333333333,0.9217100266213833,,0.004833333333333333,-300.4306472998259,,0.004833333333333333,29.950893727320455
0.005354166666666666,280.467011473976,,0.005354166666666666,278.62732461978015,,0.005354166666666666,0.9198434270979874,,0.005354166666666666,-279.54716804687814,,0.005354166666666666,27.862732461978016
0.005874999999999999,248.8034756582721,,0.005874999999999999,246.97007345514942,,0.005874999999999999,0.9167011015615003,,0.005874999999999999,-247.88677455671092,,0.005874999999999999,24.697007345514944
0.006395833333333332,207.57856180361742,,0.006395833333333332,205.7546042701129,,0.006395833333333332,0.9119787667524122,,0.006395833333333332,-206.66658303686532,,0.006395833333333332,20.575460427011294
0.006916666666666666,158.3765202302484,,0.006916666666666666,156.56669467505168,,0.006916666666666666,0.9049127775984971,,0.006916666666666666,-157.47160745265018,,0.006916666666666666,15.656669467505168
0.007437499999999999,103.0881578030066,,0.007437499999999999,101.30085053057593,,0.007437499999999999,0.8936536362154754,,0.007437499999999999,-102.1945041667914,,0.007437499999999999,10.130085053057593
0.007958333333333333,43.838175283900185,,0.007958333333333333,42.09629619296293,,0.007958333333333333,0.8709395454687652,,0.007958333333333333,-42.9672357384317,,0.007958333333333333,4.209629619296293
0.008479166666666666,-17.09648372663443,,0.008479166666666666,15.406595346753011,,0.008479166666666666,-16.251539536693866,,0.008479166666666666,0.8449441899408541,,0.008479166666666666,1.5406595346753011
0.009,-77.37413445537302,,0.009,75.60196734628389,,0.009,-76.4880509008286,,0.009,0.8860835545447117,,0.009,7.560196734628389
0.009520833333333333,-134.67834058890625,,0.009520833333333333,132.87700179347993,,0.009520833333333333,-133.77767119119324,,0.009520833333333333,0.9006693977133011,,0.009520833333333333,13.287700179347993
0.010041666666666666,-186.80693362209126,,0.010041666666666666,184.98846335533392,,0.010041666666666666,-185.89769848871273,,0.010041666666666666,0.9092351333788145,,0.010041666666666666,18.498846335533393
0.010562499999999999,-231.75664095871474,,0.010562499999999999,229.92693664844572,,0.010562499999999999,-230.84178880358036,,0.010562499999999999,0.9148521551346391,,0.010562499999999999,22.992693664844573
0.011083333333333332,-267.8000705539163,,0.011083333333333332,265.962835701103,,0.011083333333333332,-266.88145312750976,,0.011083333333333332,0.9186174264067404,,0.011083333333333332,26.5962835701103
0.011604166666666665,-293.5520936217407,,0.011604166666666665,291.71007898035515,,0.011604166666666665,-292.631086301048,,0.011604166666666665,0.9210073206928655,,0.011604166666666665,29.171007898035516
0.012124999999999999,-308.02307435759235,,0.012124999999999999,306.1785063713388,,0.012124999999999999,-307.1007903644657,,0.012124999999999999,0.9222839931268823,,0.012124999999999999,30.617850637133884
0.012645833333333332,-310.6569010872119,,0.012645833333333332,308.8118949689435,,0.012645833333333332,-309.7343980280778,,0.012645833333333332,0.9225030591343284,,0.012645833333333332,30.88118949689435
0.013166666666666665,-301.35235732644713,,0.013166666666666665,299.50893727320454,,0.013166666666666665,-300.4306472998259,,0.013166666666666665,0.9217100266213833,,0.013166666666666665,29.950893727320455
0.013687499999999998,-280.467011473976,,0.013687499999999998,278.62732461978004,,0.013687499999999998,-279.54716804687814,,0.013687499999999998,0.9198434270981011,,0.013687499999999998,27.862732461978005
0.014208333333333331,-248.80347565827205,,0.014208333333333331,246.9700734551494,,0.014208333333333331,-247.88677455671086,,0.014208333333333331,0.9167011015614719,,0.014208333333333331,24.69700734551494
0.014729166666666665,-207.57856180361756,,0.014729166666666665,205.75460427011305,,0.014729166666666665,-206.66658303686546,,0.014729166666666665,0.9119787667524122,,0.014729166666666665,20.575460427011308
0.015249999999999998,-158.37652023024842,,0.015249999999999998,156.5666946750517,,0.015249999999999998,-157.4716074526502,,0.015249999999999998,0.9049127775984971,,0.015249999999999998,15.656669467505171
0.01577083333333333,-103.08815780300688,,0.01577083333333333,101.30085053057623,,0.01577083333333333,-102.19450416679169,,0.01577083333333333,0.8936536362154612,,0.01577083333333333,10.130085053057623
0.016291666666666666,-43.83817528390023,,0.016291666666666666,42.09629619296299,,0.016291666666666666,-42.96723573843174,,0.016291666666666666,0.870939545468751,,0.016291666666666666,4.209629619296299
0.0168125,17.096483726634528,,0.0168125,15.406595346753111,,0.0168125,0.8449441899408541,,0.0168125,-16.251539536693965,,0.0168125,1.5406595346753111
0.017333333333333336,77.37413445537352,,0.017333333333333336,75.6019673462844,,0.017333333333333336,0.8860835545446974,,0.017333333333333336,-76.4880509008291,,0.017333333333333336,7.56019673462844
0.01785416666666667,134.67834058890674,,0.01785416666666667,132.87700179348042,,0.01785416666666667,0.9006693977133011,,0.01785416666666667,-133.77767119119372,,0.01785416666666667,13.287700179348043
0.018375000000000006,186.8069336220918,,0.018375000000000006,184.98846335533446,,0.018375000000000006,0.9092351333788145,,0.018375000000000006,-185.89769848871327,,0.018375000000000006,18.498846335533447
0.01889583333333334,231.75664095871537,,0.01889583333333334,229.9269366484463,,0.01889583333333334,0.914852155134696,,0.01889583333333334,-230.84178880358098,,0.01889583333333334,22.99269366484463
0.019416666666666676,267.80007055391684,,0.019416666666666676,265.96283570110353,,0.019416666666666676,0.9186174264067404,,0.019416666666666676,-266.88145312751027,,0.019416666666666676,26.596283570110355
0.01993750000000001,293.55209362174116,,0.01993750000000001,291.7100789803556,,0.01993750000000001,0.9210073206928655,,0.01993750000000001,-292.63108630104847,,0.01993750000000001,29.171007898035562
0.020458333333333346,308.0230743575925,,0.020458333333333346,306.1785063713389,,0.020458333333333346,0.9222839931269391,,0.020458333333333346,-307.10079036446587,,0.020458333333333346,30.617850637133895
0.02097916666666668,310.6569010872118,,0.02097916666666668,308.8118949689434,,0.02097916666666668,0.9225030591342716,,0.02097916666666668,-309.7343980280777,,0.02097916666666668,30.881189496894343
0.021500000000000016,301.3523573264467,,0.021500000000000016,299.508937273204,,0.021500000000000016,0.9217100266214402,,0.021500000000000016,-300.43064729982547,,0.021500000000000016,29.950893727320405
0.02202083333333335,280.46701147397533,,0.02202083333333335,278.6273246197794,,0.02202083333333335,0.9198434270980442,,0.02202083333333335,-279.54716804687746,,0.02202083333333335,27.86273246197794
0.022541666666666686,248.8034756582706,,0.022541666666666686,246.97007345514797,,0.022541666666666686,0.9167011015614435,,0.022541666666666686,-247.8867745567094,,0.022541666666666686,24.6970073455148
0.02306250000000002,207.5785618036157,,0.02306250000000002,205.7546042701112,,0.02306250000000002,0.9119787667524122,,0.02306250000000002,-206.6665830368636,,0.02306250000000002,20.575460427011123
0.023583333333333355,158.37652023024606,,0.023583333333333355,156.56669467504935,,0.023583333333333355,0.9049127775984971,,0.023583333333333355,-157.47160745264785,,0.023583333333333355,15.656669467504935
0.02410416666666669,103.0881578030038,,0.02410416666666669,101.30085053057313,,0.02410416666666669,0.8936536362154754,,0.02410416666666669,-102.1945041667886,,0.02410416666666669,10.130085053057314
0.024625000000000025,43.83817528389698,,0.024625000000000025,42.09629619295974,,0.024625000000000025,0.870939545468751,,0.024625000000000025,-42.96723573842849,,0.024625000000000025,4.209629619295974
0.02514583333333336,-17.096483726637526,,0.02514583333333336,15.4065953467561,,0.02514583333333336,-16.25153953669696,,0.02514583333333336,0.8449441899408576,,0.02514583333333336,1.5406595346756102
0.025666666666666695,-77.37413445537642,,0.025666666666666695,75.60196734628728,,0.025666666666666695,-76.488050900832,,0.025666666666666695,0.8860835545447117,,0.025666666666666695,7.560196734628729
0.02618750000000003,-134.6783405889097,,0.02618750000000003,132.87700179348337,,0.02618750000000003,-133.77767119119667,,0.02618750000000003,0.9006693977133011,,0.02618750000000003,13.287700179348338
0.026708333333333365,-186.8069336220942,,0.026708333333333365,184.98846335533688,,0.026708333333333365,-185.89769848871566,,0.026708333333333365,0.909235133378786,,0.026708333333333365,18.49884633553369
0.0272291666666667,-231.75664095871736,,0.0272291666666667,229.9269366484483,,0.0272291666666667,-230.84178880358297,,0.0272291666666667,0.9148521551346676,,0.0272291666666667,22.992693664844833
0.027750000000000035,-267.80007055391826,,0.027750000000000035,265.96283570110495,,0.027750000000000035,-266.8814531275117,,0.027750000000000035,0.9186174264067404,,0.027750000000000035,26.596283570110497
0.02827083333333337,-293.55209362174224,,0.02827083333333337,291.7100789803567,,0.02827083333333337,-292.63108630104955,,0.02827083333333337,0.9210073206928655,,0.02827083333333337,29.17100789803567
0.028791666666666705,-308.023074357593,,0.028791666666666705,306.17850637133944,,0.028791666666666705,-307.1007903644663,,0.028791666666666705,0.9222839931268823,,0.028791666666666705,30.617850637133945
0.02931250000000004,-310.6569010872116,,0.02931250000000004,308.8118949689432,,0.02931250000000004,-309.7343980280775,,0.02931250000000004,0.9225030591343284,,0.02931250000000004,30.881189496894322
0.029833333333333375,-301.3523573264459,,0.029833333333333375,299.5089372732033,,0.029833333333333375,-300.43064729982467,,0.029833333333333375,0.9217100266213833,,0.029833333333333375,29.95089372732033
0.03035416666666671,-280.4670114739737,,0.03035416666666671,278.6273246197777,,0.03035416666666671,-279.5471680468758,,0.03035416666666671,0.9198434270981011,,0.03035416666666671,27.86273246197777
0.030875000000000045,-248.80347565826895,,0.030875000000000045,246.9700734551463,,0.030875000000000045,-247.88677455670776,,0.030875000000000045,0.9167011015614719,,0.030875000000000045,24.69700734551463
0.03139583333333338,-207.57856180361367,,0.03139583333333338,205.75460427010918,,0.03139583333333338,-206.66658303686157,,0.03139583333333338,0.9119787667523838,,0.03139583333333338,20.57546042701092
0.03191666666666671,-158.37652023024373,,0.03191666666666671,156.566694675047,,0.03191666666666671,-157.47160745264551,,0.03191666666666671,0.9049127775985255,,0.03191666666666671,15.656669467504699
0.03243750000000004,-103.08815780300226,,0.03243750000000004,101.3008505305716,,0.03243750000000004,-102.19450416678707,,0.03243750000000004,0.8936536362154754,,0.03243750000000004,10.13008505305716
0.032958333333333374,-43.838175283895374,,0.032958333333333374,42.09629619295814,,0.032958333333333374,-42.967235738426886,,0.032958333333333374,0.8709395454687439,,0.032958333333333374,4.209629619295814
0.033479166666666706,17.096483726638592,,0.033479166666666706,15.406595346757165,,0.033479166666666706,0.8449441899408576,,0.033479166666666706,-16.251539536698022,,0.033479166666666706,1.5406595346757166
0.03400000000000004,77.37413445537746,,0.03400000000000004,75.60196734628832,,0.03400000000000004,0.8860835545447117,,0.03400000000000004,-76.48805090083303,,0.03400000000000004,7.560196734628832
0.03452083333333337,134.67834058891015,,0.03452083333333337,132.87700179348386,,0.03452083333333337,0.9006693977132727,,0.03452083333333337,-133.77767119119713,,0.03452083333333337,13.287700179348386
0.0350416666666667,186.80693362209416,,0.0350416666666667,184.98846335533682,,0.0350416666666667,0.9092351333788145,,0.0350416666666667,-185.89769848871563,,0.0350416666666667,18.49884633553368
0.03556250000000003,231.75664095871696,,0.03556250000000003,229.9269366484479,,0.03556250000000003,0.9148521551346676,,0.03556250000000003,-230.84178880358257,,0.03556250000000003,22.992693664844793
0.03608333333333336,267.8000705539182,,0.03608333333333336,265.9628357011049,,0.03608333333333336,0.9186174264067404,,0.03608333333333336,-266.88145312751163,,0.03608333333333336,26.59628357011049
0.036604166666666695,293.5520936217419,,0.036604166666666695,291.71007898035634,,0.036604166666666695,0.9210073206928655,,0.036604166666666695,-292.6310863010492,,0.036604166666666695,29.171007898035636
0.037125000000000026,308.02307435759275,,0.037125000000000026,306.1785063713392,,0.037125000000000026,0.9222839931268823,,0.037125000000000026,-307.1007903644661,,0.037125000000000026,30.617850637133923
0.03764583333333336,310.65690108721174,,0.03764583333333336,308.81189496894336,,0.03764583333333336,0.9225030591342716,,0.03764583333333336,-309.73439802807763,,0.03764583333333336,30.881189496894336
0.03816666666666669,301.3523573264464,,0.03816666666666669,299.5089372732038,,0.03816666666666669,0.9217100266213833,,0.03816666666666669,-300.4306472998252,,0.03816666666666669,29.95089372732038
0.03868750000000002,280.4670114739749,,0.03868750000000002,278.627324619779,,0.03868750000000002,0.9198434270979874,,0.03868750000000002,-279.547168046877,,0.03868750000000002,27.862732461977902
0.03920833333333335,248.80347565827094,,0.03920833333333335,246.97007345514825,,0.03920833333333335,0.9167011015615003,,0.03920833333333335,-247.88677455670975,,0.03920833333333335,24.697007345514827
0.03972916666666668,207.57856180361617,,0.03972916666666668,205.75460427011168,,0.03972916666666668,0.9119787667523838,,0.03972916666666668,-206.66658303686407,,0.03972916666666668,20.57546042701117
0.040250000000000015,158.37652023024663,,0.040250000000000015,156.56669467504992,,0.040250000000000015,0.9049127775984971,,0.040250000000000015,-157.4716074526484,,0.040250000000000015,15.656669467504992
0.040770833333333346,103.0881578030049,,0.040770833333333346,101.30085053057424,,0.040770833333333346,0.8936536362154754,,0.040770833333333346,-102.19450416678971,,0.040770833333333346,10.130085053057424
0.04129166666666668,43.83817528389925,,0.04129166666666668,42.096296192962,,0.04129166666666668,0.8709395454687581,,0.04129166666666668,-42.96723573843076,,0.04129166666666668,4.209629619296201
0.04181250000000001,-17.096483726635242,,0.04181250000000001,15.406595346753823,,0.04181250000000001,-16.25153953669468,,0.04181250000000001,0.8449441899408541,,0.04181250000000001,1.5406595346753824
0.04233333333333334,-77.37413445537366,,0.04233333333333334,75.60196734628452,,0.04233333333333334,-76.48805090082924,,0.04233333333333334,0.8860835545447117,,0.04233333333333334,7.560196734628453
0.04285416666666667,-134.67834058890662,,0.04285416666666667,132.8770017934803,,0.04285416666666667,-133.7776711911936,,0.04285416666666667,0.9006693977133011,,0.04285416666666667,13.28770017934803
0.043375000000000004,-186.80693362209146,,0.043375000000000004,184.98846335533412,,0.043375000000000004,-185.89769848871293,,0.043375000000000004,0.9092351333788145,,0.043375000000000004,18.49884633553341
0.043895833333333335,-231.7566409587147,,0.043895833333333335,229.9269366484457,,0.043895833333333335,-230.84178880358033,,0.043895833333333335,0.9148521551346391,,0.043895833333333335,22.99269366484457
0.04441666666666667,-267.8000705539162,,0.04441666666666667,265.9628357011029,,0.04441666666666667,-266.88145312750964,,0.04441666666666667,0.9186174264067404,,0.04441666666666667,26.59628357011029
0.0449375,-293.5520936217406,,0.0449375,291.71007898035504,,0.0449375,-292.6310863010479,,0.0449375,0.9210073206928655,,0.0449375,29.171007898035505
0.04545833333333333,-308.02307435759224,,0.04545833333333333,306.17850637133864,,0.04545833333333333,-307.1007903644656,,0.04545833333333333,0.9222839931269391,,0.04545833333333333,30.617850637133866
0.04597916666666666,-310.65690108721196,,0.04597916666666666,308.8118949689436,,0.04597916666666666,-309.73439802807786,,0.04597916666666666,0.9225030591342716,,0.04597916666666666,30.88118949689436
0.04649999999999999,-301.35235732644736,,0.04649999999999999,299.50893727320477,,0.04649999999999999,-300.43064729982615,,0.04649999999999999,0.9217100266213833,,0.04649999999999999,29.950893727320477
0.047020833333333324,-280.4670114739766,,0.047020833333333324,278.62732461978067,,0.047020833333333324,-279.5471680468787,,0.047020833333333324,0.9198434270980442,,0.047020833333333324,27.86273246197807
0.047541666666666656,-248.803475658273,,0.047541666666666656,246.97007345515033,,0.047541666666666656,-247.8867745567118,,0.047541666666666656,0.9167011015614719,,0.047541666666666656,24.697007345515033
